# vsim -cvgperinstance -vopt -voptargs="+acc" -coverage -sva -c -do " log -r /* ;coverage save -onexit vs_alg_cov3;run -all; exit" -wlf wave_file3.wlf -l test3.log -sv_seed random work.top "+UVM_TESTNAME=vs_alg_err_reg_test" "+UVM_MAX_QUIT_COUNT=1" "+UVM_VERBOSITY=UVM_LOW" -f message.f 
# Start time: 12:44:31 on Dec 10,2025
# ** Note: (vsim-8009) Loading existing optimized design _opt
# //  Questa Sim-64
# //  Version 2021.2_1 linux_x86_64 May 15 2021
# //
# //  Copyright 1991-2021 Mentor Graphics Corporation
# //  All Rights Reserved.
# //
# //  QuestaSim and its associated documentation contain trade
# //  secrets and commercial or financial information that are the property of
# //  Mentor Graphics Corporation and are privileged, confidential,
# //  and exempt from disclosure under the Freedom of Information Act,
# //  5 U.S.C. Section 552. Furthermore, this information
# //  is prohibited from disclosure under the Trade Secrets Act,
# //  18 U.S.C. Section 1905.
# //
# Loading sv_std.std
# Loading work.cfs_algn_if(fast)
# Loading work.cfs_apb_if(fast)
# Loading work.cfs_md_if(fast)
# Loading mtiUvm.uvm_pkg(fast)
# Loading work.cfs_algn_reg_pkg(fast)
# Loading work.uvm_ext_pkg(fast)
# Loading work.cfs_md_pkg(fast)
# Loading work.cfs_apb_pkg(fast)
# Loading work.cfs_algn_pkg(fast)
# Loading work.cfs_algn_test_pkg(fast)
# Loading mtiUvm.questa_uvm_pkg(fast)
# Loading work.top(fast)
# Loading work.cfs_apb_if(fast__2)
# Loading work.cfs_md_if(fast__3)
# Loading work.cfs_algn_if(fast__2)
# Loading work.cfs_aligner(fast)
# Loading work.cfs_aligner_core(fast)
# Loading work.cfs_rx_ctrl(fast)
# Loading work.cfs_synch(fast)
# Loading work.cfs_synch_fifo(fast)
# Loading work.cfs_tx_ctrl(fast)
# Loading work.cfs_ctrl(fast)
# Loading work.cfs_regs(fast)
# Loading work.cfs_edge_detect(fast)
# Loading work.cfs_edge_detect(fast__1)
# Loading /home/abinashnayak/Downloads/questasim/uvm-1.1d/linux_x86_64/uvm_dpi.so
# ** Warning: (vsim-8634) Code was not compiled with coverage options.
# Sv_Seed = 4293130188
#  log -r /* 
# coverage save -onexit vs_alg_cov3
# run -all
# ----------------------------------------------------------------
# UVM-1.1d
# (C) 2007-2013 Mentor Graphics Corporation
# (C) 2007-2013 Cadence Design Systems, Inc.
# (C) 2006-2013 Synopsys, Inc.
# (C) 2011-2013 Cypress Semiconductor Corp.
# ----------------------------------------------------------------
# 
#   ***********       IMPORTANT RELEASE NOTES         ************
# 
#   You are using a version of the UVM library that has been compiled
#   with `UVM_NO_DEPRECATED undefined.
#   See http://www.eda.org/svdb/view.php?id=3313 for more details.
# 
#   You are using a version of the UVM library that has been compiled
#   with `UVM_OBJECT_MUST_HAVE_CONSTRUCTOR undefined.
#   See http://www.eda.org/svdb/view.php?id=3770 for more details.
# 
#       (Specify +UVM_NO_RELNOTES to turn off this notice)
# 
# UVM_INFO @ 0: reporter [RNTST] Running test vs_alg_err_reg_test...
# UVM_INFO @ 0: reporter [MAXQUITSET] '+UVM_MAX_QUIT_COUNT=1' provided on the command line is being applied.
# ** Warning: (vsim-8556) On evaluating the expression 'binsof(ctrl_size) intersect{ value_list }' inside the select expression of Bin 'ignore_ctrl' of Cross 'all' in Covergroup instance '\/cfs_algn_pkg::cfs_algn_coverage::cover_split ', no matching bins were found. The binsof expression will result in an empty set.
#    Time: 0 ns  Iteration: 7  Region: /uvm_pkg::uvm_phase::m_run_phases
# ** Warning: (vsim-8547) After dropping the illegal, ignore or invalid values, the values list associated with fixed-size array sub bin 'values[12]' in Coverpoint 'index' of Covergroup instance '\/cfs_apb_pkg::cfs_apb_coverage::wrap_cover_rd_data_1 ' has converged to empty list. The sub bin will be taken out of coverage calculation.
#    Time: 0 ns  Iteration: 7  Region: /uvm_pkg::uvm_phase::m_run_phases
# ** Warning: (vsim-8547) After dropping the illegal, ignore or invalid values, the values list associated with fixed-size array sub bin 'values[13]' in Coverpoint 'index' of Covergroup instance '\/cfs_apb_pkg::cfs_apb_coverage::wrap_cover_rd_data_1 ' has converged to empty list. The sub bin will be taken out of coverage calculation.
#    Time: 0 ns  Iteration: 7  Region: /uvm_pkg::uvm_phase::m_run_phases
# ** Warning: (vsim-8547) After dropping the illegal, ignore or invalid values, the values list associated with fixed-size array sub bin 'values[14]' in Coverpoint 'index' of Covergroup instance '\/cfs_apb_pkg::cfs_apb_coverage::wrap_cover_rd_data_1 ' has converged to empty list. The sub bin will be taken out of coverage calculation.
#    Time: 0 ns  Iteration: 7  Region: /uvm_pkg::uvm_phase::m_run_phases
# ** Warning: (vsim-8547) After dropping the illegal, ignore or invalid values, the values list associated with fixed-size array sub bin 'values[15]' in Coverpoint 'index' of Covergroup instance '\/cfs_apb_pkg::cfs_apb_coverage::wrap_cover_rd_data_1 ' has converged to empty list. The sub bin will be taken out of coverage calculation.
#    Time: 0 ns  Iteration: 7  Region: /uvm_pkg::uvm_phase::m_run_phases
# ** Warning: (vsim-8547) After dropping the illegal, ignore or invalid values, the values list associated with fixed-size array sub bin 'values[20]' in Coverpoint 'index' of Covergroup instance '\/cfs_apb_pkg::cfs_apb_coverage::wrap_cover_rd_data_1 ' has converged to empty list. The sub bin will be taken out of coverage calculation.
#    Time: 0 ns  Iteration: 7  Region: /uvm_pkg::uvm_phase::m_run_phases
# ** Warning: (vsim-8547) After dropping the illegal, ignore or invalid values, the values list associated with fixed-size array sub bin 'values[21]' in Coverpoint 'index' of Covergroup instance '\/cfs_apb_pkg::cfs_apb_coverage::wrap_cover_rd_data_1 ' has converged to empty list. The sub bin will be taken out of coverage calculation.
#    Time: 0 ns  Iteration: 7  Region: /uvm_pkg::uvm_phase::m_run_phases
# ** Warning: (vsim-8547) After dropping the illegal, ignore or invalid values, the values list associated with fixed-size array sub bin 'values[22]' in Coverpoint 'index' of Covergroup instance '\/cfs_apb_pkg::cfs_apb_coverage::wrap_cover_rd_data_1 ' has converged to empty list. The sub bin will be taken out of coverage calculation.
#    Time: 0 ns  Iteration: 7  Region: /uvm_pkg::uvm_phase::m_run_phases
# ** Warning: (vsim-8547) After dropping the illegal, ignore or invalid values, the values list associated with fixed-size array sub bin 'values[23]' in Coverpoint 'index' of Covergroup instance '\/cfs_apb_pkg::cfs_apb_coverage::wrap_cover_rd_data_1 ' has converged to empty list. The sub bin will be taken out of coverage calculation.
#    Time: 0 ns  Iteration: 7  Region: /uvm_pkg::uvm_phase::m_run_phases
# ** Warning: (vsim-8547) After dropping the illegal, ignore or invalid values, the values list associated with fixed-size array sub bin 'values[24]' in Coverpoint 'index' of Covergroup instance '\/cfs_apb_pkg::cfs_apb_coverage::wrap_cover_rd_data_1 ' has converged to empty list. The sub bin will be taken out of coverage calculation.
#    Time: 0 ns  Iteration: 7  Region: /uvm_pkg::uvm_phase::m_run_phases
# ** Warning: (vsim-8547) After dropping the illegal, ignore or invalid values, the values list associated with fixed-size array sub bin 'values[25]' in Coverpoint 'index' of Covergroup instance '\/cfs_apb_pkg::cfs_apb_coverage::wrap_cover_rd_data_1 ' has converged to empty list. The sub bin will be taken out of coverage calculation.
#    Time: 0 ns  Iteration: 7  Region: /uvm_pkg::uvm_phase::m_run_phases
# ** Warning: (vsim-8547) After dropping the illegal, ignore or invalid values, the values list associated with fixed-size array sub bin 'values[26]' in Coverpoint 'index' of Covergroup instance '\/cfs_apb_pkg::cfs_apb_coverage::wrap_cover_rd_data_1 ' has converged to empty list. The sub bin will be taken out of coverage calculation.
#    Time: 0 ns  Iteration: 7  Region: /uvm_pkg::uvm_phase::m_run_phases
# ** Warning: (vsim-8547) After dropping the illegal, ignore or invalid values, the values list associated with fixed-size array sub bin 'values[27]' in Coverpoint 'index' of Covergroup instance '\/cfs_apb_pkg::cfs_apb_coverage::wrap_cover_rd_data_1 ' has converged to empty list. The sub bin will be taken out of coverage calculation.
#    Time: 0 ns  Iteration: 7  Region: /uvm_pkg::uvm_phase::m_run_phases
# ** Warning: (vsim-8547) After dropping the illegal, ignore or invalid values, the values list associated with fixed-size array sub bin 'values[28]' in Coverpoint 'index' of Covergroup instance '\/cfs_apb_pkg::cfs_apb_coverage::wrap_cover_rd_data_1 ' has converged to empty list. The sub bin will be taken out of coverage calculation.
#    Time: 0 ns  Iteration: 7  Region: /uvm_pkg::uvm_phase::m_run_phases
# ** Warning: (vsim-8547) After dropping the illegal, ignore or invalid values, the values list associated with fixed-size array sub bin 'values[29]' in Coverpoint 'index' of Covergroup instance '\/cfs_apb_pkg::cfs_apb_coverage::wrap_cover_rd_data_1 ' has converged to empty list. The sub bin will be taken out of coverage calculation.
#    Time: 0 ns  Iteration: 7  Region: /uvm_pkg::uvm_phase::m_run_phases
# ** Warning: (vsim-8547) After dropping the illegal, ignore or invalid values, the values list associated with fixed-size array sub bin 'values[30]' in Coverpoint 'index' of Covergroup instance '\/cfs_apb_pkg::cfs_apb_coverage::wrap_cover_rd_data_1 ' has converged to empty list. The sub bin will be taken out of coverage calculation.
#    Time: 0 ns  Iteration: 7  Region: /uvm_pkg::uvm_phase::m_run_phases
# ** Warning: (vsim-8547) After dropping the illegal, ignore or invalid values, the values list associated with fixed-size array sub bin 'values[31]' in Coverpoint 'index' of Covergroup instance '\/cfs_apb_pkg::cfs_apb_coverage::wrap_cover_rd_data_1 ' has converged to empty list. The sub bin will be taken out of coverage calculation.
#    Time: 0 ns  Iteration: 7  Region: /uvm_pkg::uvm_phase::m_run_phases
# ** Warning: (vsim-12051) Illegal assignment in cast to class work.cfs_md_pkg::cfs_md_sequencer_base_master from class work.uvm_ext_pkg::uvm_ext_sequencer #(class work.cfs_md_pkg::cfs_md_item_drv_master)
#    Time: 0 ns  Iteration: 15  Process: /uvm_pkg::uvm_phase::m_run_phases/#FORK#1847_7fefe64bf6c File: ../alg_tb/cfs_algn_env.sv Line: 132
# ** Warning: (vsim-12051) Illegal assignment in cast to class work.cfs_md_pkg::cfs_md_sequencer_base_slave from class work.uvm_ext_pkg::uvm_ext_sequencer #(class work.cfs_md_pkg::cfs_md_item_drv_slave)
#    Time: 0 ns  Iteration: 15  Process: /uvm_pkg::uvm_phase::m_run_phases/#FORK#1847_7fefe64bf6c File: ../alg_tb/cfs_algn_env.sv Line: 133
# UVM_INFO @ 0: reporter [UVMTOP] UVM testbench topology:
# --------------------------------------------------------------------------------
# Name                          Type                                   Size  Value
# --------------------------------------------------------------------------------
# uvm_test_top                  vs_alg_err_reg_test                    -     @487 
#   env                         uvm_env                                -     @494 
#     agent_config              uvm_component                          -     @522 
#     apb_agent                 cfs_apb_agent                          -     @508 
#       agent_config            cfs_apb_agent_config                   -     @870 
#       coverage                cfs_apb_coverage                       -     @892 
#         port_item             uvm_analysis_imp_item                  -     @899 
#         wrap_cover_addr_0     uvm_component                          -     @1039
#         wrap_cover_addr_1     uvm_component                          -     @1046
#         wrap_cover_rd_data_0  uvm_component                          -     @1067
#         wrap_cover_wr_data_0  uvm_component                          -     @1053
#         wrap_cover_wr_data_1  uvm_component                          -     @1060
#       driver                  cfs_apb_driver                         -     @907 
#         rsp_port              uvm_analysis_port                      -     @922 
#         seq_item_port         uvm_seq_item_pull_port                 -     @914 
#       monitor                 cfs_apb_monitor                        -     @877 
#         output_port           uvm_analysis_port                      -     @884 
#       sequencer               uvm_sequencer                          -     @930 
#         rsp_export            uvm_analysis_export                    -     @937 
#         seq_item_export       uvm_seq_item_pull_imp                  -     @1031
#         arbitration_queue     array                                  0     -    
#         lock_queue            array                                  0     -    
#         num_last_reqs         integral                               32    'd1  
#         num_last_rsps         integral                               32    'd1  
#     coverage                  cfs_algn_coverage                      -     @744 
#       port_in_split_info      uvm_analysis_imp_in_split_info         -     @751 
#     env_config                cfs_algn_env_config                    -     @501 
#     md_rx_agent               uvm_agent                              -     @515 
#       agent_config            uvm_component                          -     @1081
#       coverage                uvm_component                          -     @1103
#         port_item             uvm_analysis_imp_item                  -     @1110
#         wrap_cover_data_0     uvm_component                          -     @1250
#         wrap_cover_data_1     uvm_component                          -     @1257
#       driver                  uvm_driver #(REQ,RSP)                  -     @1118
#         rsp_port              uvm_analysis_port                      -     @1133
#         seq_item_port         uvm_seq_item_pull_port                 -     @1125
#       monitor                 uvm_monitor                            -     @1088
#         output_port           uvm_analysis_port                      -     @1095
#       sequencer               cfs_md_sequencer_base_master           -     @1141
#         rsp_export            uvm_analysis_export                    -     @1148
#         seq_item_export       uvm_seq_item_pull_imp                  -     @1242
#         arbitration_queue     array                                  0     -    
#         lock_queue            array                                  0     -    
#         num_last_reqs         integral                               32    'd1  
#         num_last_rsps         integral                               32    'd1  
#     md_tx_agent               uvm_agent                              -     @533 
#       coverage                uvm_component                          -     @1286
#         port_item             uvm_analysis_imp_item                  -     @1293
#         wrap_cover_data_0     uvm_component                          -     @1480
#         wrap_cover_data_1     uvm_component                          -     @1487
#       driver                  uvm_driver #(REQ,RSP)                  -     @1301
#         rsp_port              uvm_analysis_port                      -     @1316
#         seq_item_port         uvm_seq_item_pull_port                 -     @1308
#       monitor                 uvm_monitor                            -     @1271
#         output_port           uvm_analysis_port                      -     @1278
#       sequencer               cfs_md_sequencer_base_slave            -     @1324
#         pending_items         uvm_tlm_fifo #(T)                      -     @1441
#           get_ap              uvm_analysis_port                      -     @1472
#           get_peek_export     uvm_get_peek_imp                       -     @1456
#           put_ap              uvm_analysis_port                      -     @1464
#           put_export          uvm_put_imp                            -     @1448
#         port_from_mon         uvm_analysis_imp                       -     @1433
#         rsp_export            uvm_analysis_export                    -     @1331
#         seq_item_export       uvm_seq_item_pull_imp                  -     @1425
#         arbitration_queue     array                                  0     -    
#         lock_queue            array                                  0     -    
#         num_last_reqs         integral                               32    'd1  
#         num_last_rsps         integral                               32    'd1  
#     model                     cfs_algn_model                         -     @540 
#       port_in_rx              uvm_analysis_imp_in_rx                 -     @547 
#       port_in_tx              uvm_analysis_imp_in_tx                 -     @555 
#       port_out_irq            uvm_analysis_port                      -     @579 
#       port_out_rx             uvm_analysis_port                      -     @563 
#       port_out_split_info     uvm_analysis_port                      -     @587 
#       port_out_tx             uvm_analysis_port                      -     @571 
#       rx_fifo                 uvm_tlm_fifo #(T)                      -     @595 
#         get_ap                uvm_analysis_port                      -     @626 
#         get_peek_export       uvm_get_peek_imp                       -     @610 
#         put_ap                uvm_analysis_port                      -     @618 
#         put_export            uvm_put_imp                            -     @602 
#       tx_fifo                 uvm_tlm_fifo #(T)                      -     @634 
#         get_ap                uvm_analysis_port                      -     @665 
#         get_peek_export       uvm_get_peek_imp                       -     @649 
#         put_ap                uvm_analysis_port                      -     @657 
#         put_export            uvm_put_imp                            -     @641 
#     predictor                 uvm_reg_predictor #(cfs_apb_item_mon)  -     @674 
#       bus_in                  uvm_analysis_imp                       -     @681 
#       reg_ap                  uvm_analysis_port                      -     @689 
#     scoreboard                cfs_algn_scoreboard                    -     @697 
#       port_in_agent_rx        uvm_analysis_imp_in_agent_rx           -     @728 
#       port_in_agent_tx        uvm_analysis_imp_in_agent_tx           -     @736 
#       port_in_model_irq       uvm_analysis_imp_in_model_irq          -     @720 
#       port_in_model_rx        uvm_analysis_imp_in_model_rx           -     @704 
#       port_in_model_tx        uvm_analysis_imp_in_model_tx           -     @712 
#     virtual_sequencer         cfs_algn_virtual_sequencer             -     @759 
#       rsp_export              uvm_analysis_export                    -     @766 
#       seq_item_export         uvm_seq_item_pull_imp                  -     @860 
#       arbitration_queue       array                                  0     -    
#       lock_queue              array                                  0     -    
#       num_last_reqs           integral                               32    'd1  
#       num_last_rsps           integral                               32    'd1  
# --------------------------------------------------------------------------------
# 
# UVM_INFO ../alg_apb_agent/cfs_apb_driver.sv(28) @ 50: uvm_test_top.env.apb_agent.driver [ITEM_START] Driving "uvm_test_top.env.apb_agent.sequencer.seq.item": dir: CFS_APB_WRITE, addr: c, data: 86b16d0c, pre_drive_delay: 3, post_drive_delay: 0
# UVM_INFO ../alg_apb_agent/cfs_apb_monitor.sv(64) @ 105: uvm_test_top.env.apb_agent.monitor [ITEM_END] Monitored item:: dir: CFS_APB_WRITE, addr: c, data: 86b16d0c, response: CFS_APB_ERR, length: 3, prev_item_delay: 5
# UVM_INFO ../alg_apb_agent/cfs_apb_driver.sv(28) @ 105: uvm_test_top.env.apb_agent.driver [ITEM_START] Driving "uvm_test_top.env.apb_agent.sequencer.seq.item": dir: CFS_APB_WRITE, addr: c, data: 8bf2f67e, pre_drive_delay: 0, post_drive_delay: 5
# UVM_INFO ../alg_apb_agent/cfs_apb_monitor.sv(64) @ 135: uvm_test_top.env.apb_agent.monitor [ITEM_END] Monitored item:: dir: CFS_APB_WRITE, addr: c, data: 8bf2f67e, response: CFS_APB_ERR, length: 3, prev_item_delay: 0
# UVM_INFO ../alg_apb_agent/cfs_apb_driver.sv(28) @ 185: uvm_test_top.env.apb_agent.driver [ITEM_START] Driving "default_parent_seq.item": dir: CFS_APB_WRITE, addr: 0, data: 102, pre_drive_delay: 2, post_drive_delay: 4
# UVM_INFO ../alg_apb_agent/cfs_apb_monitor.sv(64) @ 245: uvm_test_top.env.apb_agent.monitor [ITEM_END] Monitored item:: dir: CFS_APB_WRITE, addr: 0, data: 102, response: CFS_APB_ERR, length: 4, prev_item_delay: 7
# UVM_INFO ../alg_apb_agent/cfs_apb_driver.sv(28) @ 285: uvm_test_top.env.apb_agent.driver [ITEM_START] Driving "default_parent_seq.item": dir: CFS_APB_WRITE, addr: 0, data: 302, pre_drive_delay: 1, post_drive_delay: 2
# UVM_INFO ../alg_apb_agent/cfs_apb_monitor.sv(64) @ 335: uvm_test_top.env.apb_agent.monitor [ITEM_END] Monitored item:: dir: CFS_APB_WRITE, addr: 0, data: 302, response: CFS_APB_ERR, length: 4, prev_item_delay: 5
# UVM_INFO ../alg_apb_agent/cfs_apb_driver.sv(28) @ 355: uvm_test_top.env.apb_agent.driver [ITEM_START] Driving "uvm_test_top.env.apb_agent.sequencer.seq.item": dir: CFS_APB_WRITE, addr: c, data: 7fa1ef5f, pre_drive_delay: 0, post_drive_delay: 2
# UVM_INFO ../alg_apb_agent/cfs_apb_monitor.sv(64) @ 385: uvm_test_top.env.apb_agent.monitor [ITEM_END] Monitored item:: dir: CFS_APB_WRITE, addr: c, data: 7fa1ef5f, response: CFS_APB_ERR, length: 3, prev_item_delay: 2
# UVM_INFO ../alg_apb_agent/cfs_apb_driver.sv(28) @ 405: uvm_test_top.env.apb_agent.driver [ITEM_START] Driving "default_parent_seq.item": dir: CFS_APB_WRITE, addr: 0, data: 306, pre_drive_delay: 5, post_drive_delay: 1
# UVM_INFO ../alg_apb_agent/cfs_apb_monitor.sv(64) @ 495: uvm_test_top.env.apb_agent.monitor [ITEM_END] Monitored item:: dir: CFS_APB_WRITE, addr: 0, data: 306, response: CFS_APB_ERR, length: 4, prev_item_delay: 7
# UVM_INFO ../alg_apb_agent/cfs_apb_driver.sv(28) @ 505: uvm_test_top.env.apb_agent.driver [ITEM_START] Driving "default_parent_seq.item": dir: CFS_APB_WRITE, addr: 0, data: 205, pre_drive_delay: 3, post_drive_delay: 2
# UVM_INFO ../alg_apb_agent/cfs_apb_monitor.sv(64) @ 575: uvm_test_top.env.apb_agent.monitor [ITEM_END] Monitored item:: dir: CFS_APB_WRITE, addr: 0, data: 205, response: CFS_APB_ERR, length: 4, prev_item_delay: 4
# UVM_INFO ../alg_apb_agent/cfs_apb_driver.sv(28) @ 595: uvm_test_top.env.apb_agent.driver [ITEM_START] Driving "uvm_test_top.env.apb_agent.sequencer.seq.item": dir: CFS_APB_READ, addr: a3fa, pre_drive_delay: 2, post_drive_delay: 5
# UVM_INFO ../alg_apb_agent/cfs_apb_monitor.sv(64) @ 645: uvm_test_top.env.apb_agent.monitor [ITEM_END] Monitored item:: dir: CFS_APB_READ, addr: a3fa, data: 0, response: CFS_APB_ERR, length: 3, prev_item_delay: 4
# UVM_INFO ../alg_apb_agent/cfs_apb_driver.sv(28) @ 695: uvm_test_top.env.apb_agent.driver [ITEM_START] Driving "uvm_test_top.env.apb_agent.sequencer.seq.item": dir: CFS_APB_READ, addr: c1a1, pre_drive_delay: 3, post_drive_delay: 5
# UVM_INFO ../alg_apb_agent/cfs_apb_monitor.sv(64) @ 755: uvm_test_top.env.apb_agent.monitor [ITEM_END] Monitored item:: dir: CFS_APB_READ, addr: c1a1, data: 0, response: CFS_APB_ERR, length: 3, prev_item_delay: 8
# UVM_INFO ../alg_apb_agent/cfs_apb_driver.sv(28) @ 805: uvm_test_top.env.apb_agent.driver [ITEM_START] Driving "uvm_test_top.env.apb_agent.sequencer.seq.item": dir: CFS_APB_WRITE, addr: e2b7, data: fb0c4baf, pre_drive_delay: 4, post_drive_delay: 2
# UVM_INFO ../alg_apb_agent/cfs_apb_monitor.sv(64) @ 875: uvm_test_top.env.apb_agent.monitor [ITEM_END] Monitored item:: dir: CFS_APB_WRITE, addr: e2b7, data: fb0c4baf, response: CFS_APB_ERR, length: 3, prev_item_delay: 9
# UVM_INFO ../alg_apb_agent/cfs_apb_driver.sv(28) @ 895: uvm_test_top.env.apb_agent.driver [ITEM_START] Driving "uvm_test_top.env.apb_agent.sequencer.seq.item": dir: CFS_APB_WRITE, addr: c, data: f1aa01a8, pre_drive_delay: 3, post_drive_delay: 5
# UVM_INFO ../alg_apb_agent/cfs_apb_monitor.sv(64) @ 955: uvm_test_top.env.apb_agent.monitor [ITEM_END] Monitored item:: dir: CFS_APB_WRITE, addr: c, data: f1aa01a8, response: CFS_APB_ERR, length: 3, prev_item_delay: 5
# UVM_INFO ../alg_apb_agent/cfs_apb_driver.sv(28) @ 1005: uvm_test_top.env.apb_agent.driver [ITEM_START] Driving "uvm_test_top.env.apb_agent.sequencer.seq.item": dir: CFS_APB_WRITE, addr: c, data: bb0c1e74, pre_drive_delay: 1, post_drive_delay: 1
# UVM_INFO ../alg_apb_agent/cfs_apb_monitor.sv(64) @ 1045: uvm_test_top.env.apb_agent.monitor [ITEM_END] Monitored item:: dir: CFS_APB_WRITE, addr: c, data: bb0c1e74, response: CFS_APB_ERR, length: 3, prev_item_delay: 6
# UVM_INFO ../alg_apb_agent/cfs_apb_driver.sv(28) @ 1055: uvm_test_top.env.apb_agent.driver [ITEM_START] Driving "default_parent_seq.item": dir: CFS_APB_WRITE, addr: 0, data: 303, pre_drive_delay: 3, post_drive_delay: 5
# UVM_INFO ../alg_apb_agent/cfs_apb_monitor.sv(64) @ 1125: uvm_test_top.env.apb_agent.monitor [ITEM_END] Monitored item:: dir: CFS_APB_WRITE, addr: 0, data: 303, response: CFS_APB_ERR, length: 4, prev_item_delay: 4
# UVM_INFO ../alg_apb_agent/cfs_apb_driver.sv(28) @ 1175: uvm_test_top.env.apb_agent.driver [ITEM_START] Driving "default_parent_seq.item": dir: CFS_APB_WRITE, addr: 0, data: 10302, pre_drive_delay: 3, post_drive_delay: 0
# UVM_INFO ../alg_apb_agent/cfs_apb_monitor.sv(64) @ 1245: uvm_test_top.env.apb_agent.monitor [ITEM_END] Monitored item:: dir: CFS_APB_WRITE, addr: 0, data: 10302, response: CFS_APB_ERR, length: 4, prev_item_delay: 8
# UVM_INFO ../alg_apb_agent/cfs_apb_driver.sv(28) @ 1245: uvm_test_top.env.apb_agent.driver [ITEM_START] Driving "default_parent_seq.item": dir: CFS_APB_WRITE, addr: 0, data: 10207, pre_drive_delay: 3, post_drive_delay: 4
# UVM_INFO ../alg_apb_agent/cfs_apb_monitor.sv(64) @ 1315: uvm_test_top.env.apb_agent.monitor [ITEM_END] Monitored item:: dir: CFS_APB_WRITE, addr: 0, data: 10207, response: CFS_APB_ERR, length: 4, prev_item_delay: 3
# UVM_INFO ../alg_apb_agent/cfs_apb_driver.sv(28) @ 1355: uvm_test_top.env.apb_agent.driver [ITEM_START] Driving "uvm_test_top.env.apb_agent.sequencer.seq.item": dir: CFS_APB_READ, addr: 2d33, pre_drive_delay: 4, post_drive_delay: 1
# UVM_INFO ../alg_apb_agent/cfs_apb_monitor.sv(64) @ 1425: uvm_test_top.env.apb_agent.monitor [ITEM_END] Monitored item:: dir: CFS_APB_READ, addr: 2d33, data: 0, response: CFS_APB_ERR, length: 3, prev_item_delay: 8
# UVM_INFO ../alg_apb_agent/cfs_apb_driver.sv(28) @ 1435: uvm_test_top.env.apb_agent.driver [ITEM_START] Driving "uvm_test_top.env.apb_agent.sequencer.seq.item": dir: CFS_APB_WRITE, addr: 5d3f, data: 917049ff, pre_drive_delay: 4, post_drive_delay: 1
# UVM_INFO ../alg_apb_agent/cfs_apb_monitor.sv(64) @ 1505: uvm_test_top.env.apb_agent.monitor [ITEM_END] Monitored item:: dir: CFS_APB_WRITE, addr: 5d3f, data: 917049ff, response: CFS_APB_ERR, length: 3, prev_item_delay: 5
# UVM_INFO ../alg_apb_agent/cfs_apb_driver.sv(28) @ 1515: uvm_test_top.env.apb_agent.driver [ITEM_START] Driving "uvm_test_top.env.apb_agent.sequencer.seq.item": dir: CFS_APB_WRITE, addr: bd57, data: 1b717313, pre_drive_delay: 0, post_drive_delay: 3
# UVM_INFO ../alg_apb_agent/cfs_apb_monitor.sv(64) @ 1545: uvm_test_top.env.apb_agent.monitor [ITEM_END] Monitored item:: dir: CFS_APB_WRITE, addr: bd57, data: 1b717313, response: CFS_APB_ERR, length: 3, prev_item_delay: 1
# UVM_INFO ../alg_apb_agent/cfs_apb_driver.sv(28) @ 1575: uvm_test_top.env.apb_agent.driver [ITEM_START] Driving "default_parent_seq.item": dir: CFS_APB_WRITE, addr: 0, data: 304, pre_drive_delay: 4, post_drive_delay: 2
# UVM_INFO ../alg_apb_agent/cfs_apb_monitor.sv(64) @ 1655: uvm_test_top.env.apb_agent.monitor [ITEM_END] Monitored item:: dir: CFS_APB_WRITE, addr: 0, data: 304, response: CFS_APB_ERR, length: 4, prev_item_delay: 7
# UVM_INFO ../alg_apb_agent/cfs_apb_driver.sv(28) @ 1675: uvm_test_top.env.apb_agent.driver [ITEM_START] Driving "uvm_test_top.env.apb_agent.sequencer.seq.item": dir: CFS_APB_WRITE, addr: 3f48, data: 985211e5, pre_drive_delay: 1, post_drive_delay: 4
# UVM_INFO ../alg_apb_agent/cfs_apb_monitor.sv(64) @ 1715: uvm_test_top.env.apb_agent.monitor [ITEM_END] Monitored item:: dir: CFS_APB_WRITE, addr: 3f48, data: 985211e5, response: CFS_APB_ERR, length: 3, prev_item_delay: 3
# UVM_INFO ../alg_apb_agent/cfs_apb_driver.sv(28) @ 1755: uvm_test_top.env.apb_agent.driver [ITEM_START] Driving "uvm_test_top.env.apb_agent.sequencer.seq.item": dir: CFS_APB_READ, addr: c93b, pre_drive_delay: 3, post_drive_delay: 0
# UVM_INFO ../alg_apb_agent/cfs_apb_monitor.sv(64) @ 1815: uvm_test_top.env.apb_agent.monitor [ITEM_END] Monitored item:: dir: CFS_APB_READ, addr: c93b, data: 0, response: CFS_APB_ERR, length: 3, prev_item_delay: 7
# UVM_INFO ../alg_apb_agent/cfs_apb_driver.sv(28) @ 1815: uvm_test_top.env.apb_agent.driver [ITEM_START] Driving "default_parent_seq.item": dir: CFS_APB_WRITE, addr: 0, data: 10102, pre_drive_delay: 1, post_drive_delay: 4
# UVM_INFO ../alg_apb_agent/cfs_apb_monitor.sv(64) @ 1865: uvm_test_top.env.apb_agent.monitor [ITEM_END] Monitored item:: dir: CFS_APB_WRITE, addr: 0, data: 10102, response: CFS_APB_ERR, length: 4, prev_item_delay: 1
# UVM_INFO ../alg_apb_agent/cfs_apb_driver.sv(28) @ 1905: uvm_test_top.env.apb_agent.driver [ITEM_START] Driving "uvm_test_top.env.apb_agent.sequencer.seq.item": dir: CFS_APB_READ, addr: 237c, pre_drive_delay: 5, post_drive_delay: 0
# UVM_INFO ../alg_apb_agent/cfs_apb_monitor.sv(64) @ 1985: uvm_test_top.env.apb_agent.monitor [ITEM_END] Monitored item:: dir: CFS_APB_READ, addr: 237c, data: 0, response: CFS_APB_ERR, length: 3, prev_item_delay: 9
# UVM_INFO ../alg_apb_agent/cfs_apb_driver.sv(28) @ 1985: uvm_test_top.env.apb_agent.driver [ITEM_START] Driving "uvm_test_top.env.apb_agent.sequencer.seq.item": dir: CFS_APB_READ, addr: 2da1, pre_drive_delay: 5, post_drive_delay: 0
# UVM_INFO ../alg_apb_agent/cfs_apb_monitor.sv(64) @ 2065: uvm_test_top.env.apb_agent.monitor [ITEM_END] Monitored item:: dir: CFS_APB_READ, addr: 2da1, data: 0, response: CFS_APB_ERR, length: 3, prev_item_delay: 5
# UVM_INFO ../alg_apb_agent/cfs_apb_driver.sv(28) @ 2065: uvm_test_top.env.apb_agent.driver [ITEM_START] Driving "uvm_test_top.env.apb_agent.sequencer.seq.item": dir: CFS_APB_READ, addr: e9e, pre_drive_delay: 2, post_drive_delay: 1
# UVM_INFO ../alg_apb_agent/cfs_apb_monitor.sv(64) @ 2115: uvm_test_top.env.apb_agent.monitor [ITEM_END] Monitored item:: dir: CFS_APB_READ, addr: e9e, data: 0, response: CFS_APB_ERR, length: 3, prev_item_delay: 2
# UVM_INFO ../alg_apb_agent/cfs_apb_driver.sv(28) @ 2125: uvm_test_top.env.apb_agent.driver [ITEM_START] Driving "uvm_test_top.env.apb_agent.sequencer.seq.item": dir: CFS_APB_READ, addr: 9d74, pre_drive_delay: 2, post_drive_delay: 0
# UVM_INFO ../alg_apb_agent/cfs_apb_monitor.sv(64) @ 2175: uvm_test_top.env.apb_agent.monitor [ITEM_END] Monitored item:: dir: CFS_APB_READ, addr: 9d74, data: 0, response: CFS_APB_ERR, length: 3, prev_item_delay: 3
# UVM_INFO ../alg_apb_agent/cfs_apb_driver.sv(28) @ 2175: uvm_test_top.env.apb_agent.driver [ITEM_START] Driving "uvm_test_top.env.apb_agent.sequencer.seq.item": dir: CFS_APB_WRITE, addr: e229, data: f2571894, pre_drive_delay: 5, post_drive_delay: 1
# UVM_INFO ../alg_apb_agent/cfs_apb_monitor.sv(64) @ 2255: uvm_test_top.env.apb_agent.monitor [ITEM_END] Monitored item:: dir: CFS_APB_WRITE, addr: e229, data: f2571894, response: CFS_APB_ERR, length: 3, prev_item_delay: 5
# UVM_INFO ../alg_apb_agent/cfs_apb_driver.sv(28) @ 2265: uvm_test_top.env.apb_agent.driver [ITEM_START] Driving "default_parent_seq.item": dir: CFS_APB_WRITE, addr: 0, data: 102, pre_drive_delay: 0, post_drive_delay: 1
# UVM_INFO ../alg_apb_agent/cfs_apb_monitor.sv(64) @ 2305: uvm_test_top.env.apb_agent.monitor [ITEM_END] Monitored item:: dir: CFS_APB_WRITE, addr: 0, data: 102, response: CFS_APB_ERR, length: 4, prev_item_delay: 1
# UVM_INFO ../alg_apb_agent/cfs_apb_driver.sv(28) @ 2315: uvm_test_top.env.apb_agent.driver [ITEM_START] Driving "uvm_test_top.env.apb_agent.sequencer.seq.item": dir: CFS_APB_READ, addr: ffe7, pre_drive_delay: 0, post_drive_delay: 5
# UVM_INFO ../alg_apb_agent/cfs_apb_monitor.sv(64) @ 2345: uvm_test_top.env.apb_agent.monitor [ITEM_END] Monitored item:: dir: CFS_APB_READ, addr: ffe7, data: 0, response: CFS_APB_ERR, length: 3, prev_item_delay: 1
# UVM_INFO ../alg_apb_agent/cfs_apb_driver.sv(28) @ 2395: uvm_test_top.env.apb_agent.driver [ITEM_START] Driving "uvm_test_top.env.apb_agent.sequencer.seq.item": dir: CFS_APB_WRITE, addr: 8fc7, data: ffd3405c, pre_drive_delay: 5, post_drive_delay: 5
# UVM_INFO ../alg_apb_agent/cfs_apb_monitor.sv(64) @ 2475: uvm_test_top.env.apb_agent.monitor [ITEM_END] Monitored item:: dir: CFS_APB_WRITE, addr: 8fc7, data: ffd3405c, response: CFS_APB_ERR, length: 3, prev_item_delay: 10
# UVM_INFO ../alg_apb_agent/cfs_apb_driver.sv(28) @ 2525: uvm_test_top.env.apb_agent.driver [ITEM_START] Driving "default_parent_seq.item": dir: CFS_APB_WRITE, addr: 0, data: 306, pre_drive_delay: 1, post_drive_delay: 1
# UVM_INFO ../alg_apb_agent/cfs_apb_monitor.sv(64) @ 2575: uvm_test_top.env.apb_agent.monitor [ITEM_END] Monitored item:: dir: CFS_APB_WRITE, addr: 0, data: 306, response: CFS_APB_ERR, length: 4, prev_item_delay: 6
# UVM_INFO ../alg_apb_agent/cfs_apb_driver.sv(28) @ 2585: uvm_test_top.env.apb_agent.driver [ITEM_START] Driving "default_parent_seq.item": dir: CFS_APB_WRITE, addr: 0, data: 10104, pre_drive_delay: 3, post_drive_delay: 1
# UVM_INFO ../alg_apb_agent/cfs_apb_monitor.sv(64) @ 2655: uvm_test_top.env.apb_agent.monitor [ITEM_END] Monitored item:: dir: CFS_APB_WRITE, addr: 0, data: 10104, response: CFS_APB_ERR, length: 4, prev_item_delay: 4
# UVM_INFO ../alg_apb_agent/cfs_apb_driver.sv(28) @ 2665: uvm_test_top.env.apb_agent.driver [ITEM_START] Driving "default_parent_seq.item": dir: CFS_APB_WRITE, addr: 0, data: 10006, pre_drive_delay: 2, post_drive_delay: 2
# UVM_INFO ../alg_apb_agent/cfs_apb_monitor.sv(64) @ 2725: uvm_test_top.env.apb_agent.monitor [ITEM_END] Monitored item:: dir: CFS_APB_WRITE, addr: 0, data: 10006, response: CFS_APB_ERR, length: 4, prev_item_delay: 3
# UVM_INFO ../alg_apb_agent/cfs_apb_driver.sv(28) @ 2745: uvm_test_top.env.apb_agent.driver [ITEM_START] Driving "default_parent_seq.item": dir: CFS_APB_WRITE, addr: 0, data: 10306, pre_drive_delay: 1, post_drive_delay: 2
# UVM_INFO ../alg_apb_agent/cfs_apb_monitor.sv(64) @ 2795: uvm_test_top.env.apb_agent.monitor [ITEM_END] Monitored item:: dir: CFS_APB_WRITE, addr: 0, data: 10306, response: CFS_APB_ERR, length: 4, prev_item_delay: 3
# UVM_INFO ../alg_apb_agent/cfs_apb_driver.sv(28) @ 2815: uvm_test_top.env.apb_agent.driver [ITEM_START] Driving "default_parent_seq.item": dir: CFS_APB_WRITE, addr: 0, data: 306, pre_drive_delay: 0, post_drive_delay: 0
# UVM_INFO ../alg_apb_agent/cfs_apb_monitor.sv(64) @ 2855: uvm_test_top.env.apb_agent.monitor [ITEM_END] Monitored item:: dir: CFS_APB_WRITE, addr: 0, data: 306, response: CFS_APB_ERR, length: 4, prev_item_delay: 2
# UVM_INFO ../alg_apb_agent/cfs_apb_driver.sv(28) @ 2855: uvm_test_top.env.apb_agent.driver [ITEM_START] Driving "default_parent_seq.item": dir: CFS_APB_WRITE, addr: 0, data: 10104, pre_drive_delay: 5, post_drive_delay: 5
# UVM_INFO ../alg_apb_agent/cfs_apb_monitor.sv(64) @ 2945: uvm_test_top.env.apb_agent.monitor [ITEM_END] Monitored item:: dir: CFS_APB_WRITE, addr: 0, data: 10104, response: CFS_APB_ERR, length: 4, prev_item_delay: 5
# UVM_INFO ../alg_apb_agent/cfs_apb_driver.sv(28) @ 2995: uvm_test_top.env.apb_agent.driver [ITEM_START] Driving "default_parent_seq.item": dir: CFS_APB_WRITE, addr: 0, data: 10305, pre_drive_delay: 5, post_drive_delay: 3
# UVM_INFO ../alg_apb_agent/cfs_apb_monitor.sv(64) @ 3085: uvm_test_top.env.apb_agent.monitor [ITEM_END] Monitored item:: dir: CFS_APB_WRITE, addr: 0, data: 10305, response: CFS_APB_ERR, length: 4, prev_item_delay: 10
# UVM_INFO ../alg_apb_agent/cfs_apb_driver.sv(28) @ 3115: uvm_test_top.env.apb_agent.driver [ITEM_START] Driving "default_parent_seq.item": dir: CFS_APB_WRITE, addr: 0, data: 10103, pre_drive_delay: 1, post_drive_delay: 4
# UVM_INFO ../alg_apb_agent/cfs_apb_monitor.sv(64) @ 3165: uvm_test_top.env.apb_agent.monitor [ITEM_END] Monitored item:: dir: CFS_APB_WRITE, addr: 0, data: 10103, response: CFS_APB_ERR, length: 4, prev_item_delay: 4
# UVM_INFO ../alg_apb_agent/cfs_apb_driver.sv(28) @ 3205: uvm_test_top.env.apb_agent.driver [ITEM_START] Driving "default_parent_seq.item": dir: CFS_APB_WRITE, addr: 0, data: 10106, pre_drive_delay: 2, post_drive_delay: 5
# UVM_INFO ../alg_apb_agent/cfs_apb_monitor.sv(64) @ 3265: uvm_test_top.env.apb_agent.monitor [ITEM_END] Monitored item:: dir: CFS_APB_WRITE, addr: 0, data: 10106, response: CFS_APB_ERR, length: 4, prev_item_delay: 6
# UVM_INFO ../alg_apb_agent/cfs_apb_driver.sv(28) @ 3315: uvm_test_top.env.apb_agent.driver [ITEM_START] Driving "default_parent_seq.item": dir: CFS_APB_WRITE, addr: 0, data: 10006, pre_drive_delay: 1, post_drive_delay: 2
# UVM_INFO ../alg_apb_agent/cfs_apb_monitor.sv(64) @ 3365: uvm_test_top.env.apb_agent.monitor [ITEM_END] Monitored item:: dir: CFS_APB_WRITE, addr: 0, data: 10006, response: CFS_APB_ERR, length: 4, prev_item_delay: 6
# UVM_INFO ../alg_apb_agent/cfs_apb_driver.sv(28) @ 3385: uvm_test_top.env.apb_agent.driver [ITEM_START] Driving "default_parent_seq.item": dir: CFS_APB_WRITE, addr: 0, data: 6, pre_drive_delay: 0, post_drive_delay: 3
# UVM_INFO ../alg_apb_agent/cfs_apb_monitor.sv(64) @ 3425: uvm_test_top.env.apb_agent.monitor [ITEM_END] Monitored item:: dir: CFS_APB_WRITE, addr: 0, data: 6, response: CFS_APB_ERR, length: 4, prev_item_delay: 2
# UVM_INFO ../alg_apb_agent/cfs_apb_driver.sv(28) @ 3455: uvm_test_top.env.apb_agent.driver [ITEM_START] Driving "default_parent_seq.item": dir: CFS_APB_WRITE, addr: 0, data: 10107, pre_drive_delay: 4, post_drive_delay: 3
# UVM_INFO ../alg_apb_agent/cfs_apb_monitor.sv(64) @ 3535: uvm_test_top.env.apb_agent.monitor [ITEM_END] Monitored item:: dir: CFS_APB_WRITE, addr: 0, data: 10107, response: CFS_APB_ERR, length: 4, prev_item_delay: 7
# UVM_INFO ../alg_apb_agent/cfs_apb_driver.sv(28) @ 3565: uvm_test_top.env.apb_agent.driver [ITEM_START] Driving "default_parent_seq.item": dir: CFS_APB_WRITE, addr: 0, data: 107, pre_drive_delay: 1, post_drive_delay: 2
# UVM_INFO ../alg_apb_agent/cfs_apb_monitor.sv(64) @ 3615: uvm_test_top.env.apb_agent.monitor [ITEM_END] Monitored item:: dir: CFS_APB_WRITE, addr: 0, data: 107, response: CFS_APB_ERR, length: 4, prev_item_delay: 4
# UVM_INFO ../alg_apb_agent/cfs_apb_driver.sv(28) @ 3635: uvm_test_top.env.apb_agent.driver [ITEM_START] Driving "default_parent_seq.item": dir: CFS_APB_WRITE, addr: 0, data: 207, pre_drive_delay: 4, post_drive_delay: 1
# UVM_INFO ../alg_apb_agent/cfs_apb_monitor.sv(64) @ 3715: uvm_test_top.env.apb_agent.monitor [ITEM_END] Monitored item:: dir: CFS_APB_WRITE, addr: 0, data: 207, response: CFS_APB_ERR, length: 4, prev_item_delay: 6
# UVM_INFO ../alg_apb_agent/cfs_apb_driver.sv(28) @ 3725: uvm_test_top.env.apb_agent.driver [ITEM_START] Driving "default_parent_seq.item": dir: CFS_APB_WRITE, addr: 0, data: 10104, pre_drive_delay: 3, post_drive_delay: 5
# UVM_INFO ../alg_apb_agent/cfs_apb_monitor.sv(64) @ 3795: uvm_test_top.env.apb_agent.monitor [ITEM_END] Monitored item:: dir: CFS_APB_WRITE, addr: 0, data: 10104, response: CFS_APB_ERR, length: 4, prev_item_delay: 4
# UVM_INFO ../alg_apb_agent/cfs_apb_driver.sv(28) @ 3845: uvm_test_top.env.apb_agent.driver [ITEM_START] Driving "default_parent_seq.item": dir: CFS_APB_WRITE, addr: 0, data: 10007, pre_drive_delay: 0, post_drive_delay: 2
# UVM_INFO ../alg_apb_agent/cfs_apb_monitor.sv(64) @ 3885: uvm_test_top.env.apb_agent.monitor [ITEM_END] Monitored item:: dir: CFS_APB_WRITE, addr: 0, data: 10007, response: CFS_APB_ERR, length: 4, prev_item_delay: 5
# UVM_INFO ../alg_apb_agent/cfs_apb_driver.sv(28) @ 3905: uvm_test_top.env.apb_agent.driver [ITEM_START] Driving "default_parent_seq.item": dir: CFS_APB_WRITE, addr: 0, data: 10306, pre_drive_delay: 4, post_drive_delay: 2
# UVM_INFO ../alg_apb_agent/cfs_apb_monitor.sv(64) @ 3985: uvm_test_top.env.apb_agent.monitor [ITEM_END] Monitored item:: dir: CFS_APB_WRITE, addr: 0, data: 10306, response: CFS_APB_ERR, length: 4, prev_item_delay: 6
# UVM_INFO ../alg_apb_agent/cfs_apb_driver.sv(28) @ 4005: uvm_test_top.env.apb_agent.driver [ITEM_START] Driving "default_parent_seq.item": dir: CFS_APB_WRITE, addr: 0, data: 10302, pre_drive_delay: 2, post_drive_delay: 5
# UVM_INFO ../alg_apb_agent/cfs_apb_monitor.sv(64) @ 4065: uvm_test_top.env.apb_agent.monitor [ITEM_END] Monitored item:: dir: CFS_APB_WRITE, addr: 0, data: 10302, response: CFS_APB_ERR, length: 4, prev_item_delay: 4
# UVM_INFO ../alg_apb_agent/cfs_apb_driver.sv(28) @ 4115: uvm_test_top.env.apb_agent.driver [ITEM_START] Driving "default_parent_seq.item": dir: CFS_APB_WRITE, addr: 0, data: 302, pre_drive_delay: 2, post_drive_delay: 4
# UVM_INFO ../alg_apb_agent/cfs_apb_monitor.sv(64) @ 4175: uvm_test_top.env.apb_agent.monitor [ITEM_END] Monitored item:: dir: CFS_APB_WRITE, addr: 0, data: 302, response: CFS_APB_ERR, length: 4, prev_item_delay: 7
# UVM_INFO ../alg_apb_agent/cfs_apb_driver.sv(28) @ 4215: uvm_test_top.env.apb_agent.driver [ITEM_START] Driving "default_parent_seq.item": dir: CFS_APB_WRITE, addr: 0, data: 10205, pre_drive_delay: 0, post_drive_delay: 2
# UVM_INFO ../alg_apb_agent/cfs_apb_monitor.sv(64) @ 4255: uvm_test_top.env.apb_agent.monitor [ITEM_END] Monitored item:: dir: CFS_APB_WRITE, addr: 0, data: 10205, response: CFS_APB_ERR, length: 4, prev_item_delay: 4
# UVM_INFO verilog_src/uvm-1.1d/src/base/uvm_objection.svh(1267) @ 4775: reporter [TEST_DONE] 'run' phase is ready to proceed to the 'extract' phase
# *****NUMBER OF BYTES LEFT IN ALIGNER WHICH ARE NOT TAKEN OUT AFTER TEST_DONE : 0*****
# ***** OVERALL FUNCTIONAL COVERAGE : 46.88% *****
# 
# --- UVM Report Summary ---
# 
# Quit count :     0 of     1
# ** Report counts by severity
# UVM_INFO :  104
# UVM_WARNING :    0
# UVM_ERROR :    0
# UVM_FATAL :    0
# ** Report counts by id
# [ITEM_END]    50
# [ITEM_START]    50
# [MAXQUITSET]     1
# [RNTST]     1
# [TEST_DONE]     1
# [UVMTOP]     1
# ** Note: $finish    : /home/abinashnayak/Downloads/questasim/linux_x86_64/../verilog_src/uvm-1.1d/src/base/uvm_root.svh(430)
#    Time: 4775 ns  Iteration: 53  Instance: /top
# Saving coverage database on exit...
# End time: 12:44:35 on Dec 10,2025, Elapsed time: 0:00:04
# Errors: 0, Warnings: 20
